Circuit: Caleb Alexander

Direct Newton iteration for .op point succeeded.
Semiconductor Device Operating Points:
                        --- Bipolar Transistors ---
Name:        q
Model:   qkittycat
Ib:       1.94e-06
Ic:       8.57e-04
Vbe:      6.60e-01
Vbc:     -4.40e+00
Vce:      5.06e+00
BetaDC:   4.41e+02
Gm:       3.31e-02
Rpi:      1.33e+04
Rx:       1.00e+01
Ro:       9.16e+04
Cbe:      9.97e-12
Cbc:      1.93e-12
Cjs:      0.00e+00
BetaAC:   4.41e+02
Cbx:      0.00e+00
Ft:       4.43e+08



Date: Wed Jul 18 17:11:53 2018
Total elapsed time: 0.021 seconds.

tnom = 27
temp = 27
method = trap
totiter = 7
traniter = 0
tranpoints = 0
accept = 0
rejected = 0
matrix size = 10
fillins = 0
solver = Normal
Matrix Compiler1: 524 bytes object code size
Matrix Compiler2: 774 bytes object code size
